TE1F4 000:004.764   SEGGER J-Link V7.86d Log File
TE1F4 000:004.889   DLL Compiled: Mar 15 2023 13:51:13
TE1F4 000:004.893   Logging started @ 2023-12-23 13:55
TE1F4 000:004.897 - 4.899ms
TE1F4 000:004.904 JLINK_SetWarnOutHandler(...)
TE1F4 000:004.909 - 0.006ms
TE1F4 000:004.914 JLINK_OpenEx(...)
TE1F4 000:007.020   Firmware: J-Link V9 compiled May  7 2021 16:26:12
TE1F4 000:007.508   Firmware: J-Link V9 compiled May  7 2021 16:26:12
TE1F4 000:007.642   Decompressing FW timestamp took 107 us
TE1F4 000:016.024   Hardware: V9.40
TE1F4 000:016.050   S/N: 69406381
TE1F4 000:016.055   OEM: SEGGER
TE1F4 000:016.061   Feature(s): RDI, GDB, FlashDL, FlashBP, JFlash
TE1F4 000:017.313   TELNET listener socket opened on port 19021
TE1F4 000:017.480   WEBSRV WEBSRV_Init(): Starting webserver thread(s)
TE1F4 000:017.693   WEBSRV Webserver running on local port 19080
TE1F4 000:029.082 - 24.181ms returns "O.K."
TE1F4 000:029.114 JLINK_GetEmuCaps()
TE1F4 000:029.120 - 0.007ms returns 0xB9FF7BBF
TE1F4 000:029.129 JLINK_TIF_GetAvailable(...)
TE1F4 000:029.397 - 0.277ms
TE1F4 000:029.416 JLINK_SetErrorOutHandler(...)
TE1F4 000:029.420 - 0.006ms
TE1F4 000:029.439 JLINK_ExecCommand("ProjectFile = "D:\AGV_Board\MDK-ARM\JLinkSettings.ini"", ...). 
TE1F4 000:038.363   Ref file found at: C:\Keil_v5\ARM\Segger\JLinkDevices.ref
TE1F4 000:038.458   XML referenced by ref file: C:\Program Files (x86)\SEGGER\JLink_V614b\JLinkDevices.xml
TE1F4 000:038.576   C:\Program Files (x86)\SEGGER\JLink_V614b\JLinkDevices.xml evaluated successfully.
TE1F4 000:038.585     Device entry modified: ATSAMA5D27C-CN
TE1F4 000:038.623       ChipInfo:
TE1F4 000:038.630         Script:          C:\Program Files (x86)\SEGGER\JLink_V614b\Devices\ATMEL\SAMA5D2.JLinkScript
TE1F4 000:038.637       FlashBankInfo:
TE1F4 000:038.642         Name:            QSPI Flash
TE1F4 000:038.649         BaseAddr:        0xD0000000
TE1F4 000:038.693         LoaderInfo:
TE1F4 000:038.699           Name:            QSPI_Flash
TE1F4 000:038.705           MaxSize:         0x02000000
TE1F4 000:038.710           Loader:          C:\Program Files (x86)\SEGGER\JLink_V614b\Devices\ATMEL\SAMA5D2\SAMA5D2XPLAINED_QSPI.elf
TE1F4 000:038.716           LoaderType:      FLASH_ALGO_TYPE_OPEN
TE1F4 000:038.723     Device entry modified: CR600
TE1F4 000:038.730       FlashBankInfo:
TE1F4 000:038.736         Name:            QSPI flash
TE1F4 000:038.741         BaseAddr:        0x20000000
TE1F4 000:038.785         LoaderInfo:
TE1F4 000:038.791           Name:            QSPI_flash
TE1F4 000:038.796           MaxSize:         0x00040000
TE1F4 000:038.802           Loader:          C:\Program Files (x86)\SEGGER\JLink_V614b\Devices\ClouderSemi\CR600\CR600.FLM
TE1F4 000:038.807           LoaderType:      FLASH_ALGO_TYPE_OPEN
TE1F4 000:038.815     Device entry modified: MCIMX6X1_A9
TE1F4 000:038.842       ChipInfo:
TE1F4 000:038.848         Script:          C:\Program Files (x86)\SEGGER\JLink_V614b\Devices\NXP\iMX6SoloX_Connect_CortexA9.JLinkScript
TE1F4 000:038.855     Device entry modified: MCIMX6X1_M4
TE1F4 000:038.875       ChipInfo:
TE1F4 000:038.881         Script:          C:\Program Files (x86)\SEGGER\JLink_V614b\Devices\NXP\iMX6SoloX_Connect_CortexM4.JLinkScript
TE1F4 000:038.888     Device entry modified: MCIMX6X2_A9
TE1F4 000:038.908       ChipInfo:
TE1F4 000:038.913         Script:          C:\Program Files (x86)\SEGGER\JLink_V614b\Devices\NXP\iMX6SoloX_Connect_CortexA9.JLinkScript
TE1F4 000:038.920     Device entry modified: MCIMX6X2_M4
TE1F4 000:038.941       ChipInfo:
TE1F4 000:038.947         Script:          C:\Program Files (x86)\SEGGER\JLink_V614b\Devices\NXP\iMX6SoloX_Connect_CortexM4.JLinkScript
TE1F4 000:038.954     Device entry modified: MCIMX6X3_A9
TE1F4 000:038.974       ChipInfo:
TE1F4 000:038.980         Script:          C:\Program Files (x86)\SEGGER\JLink_V614b\Devices\NXP\iMX6SoloX_Connect_CortexA9.JLinkScript
TE1F4 000:038.987     Device entry modified: MCIMX6X3_M4
TE1F4 000:039.007       ChipInfo:
TE1F4 000:039.013         Script:          C:\Program Files (x86)\SEGGER\JLink_V614b\Devices\NXP\iMX6SoloX_Connect_CortexM4.JLinkScript
TE1F4 000:039.055     Device entry modified: MCIMX6X4_A9
TE1F4 000:039.079       ChipInfo:
TE1F4 000:039.085         Script:          C:\Program Files (x86)\SEGGER\JLink_V614b\Devices\NXP\iMX6SoloX_Connect_CortexA9.JLinkScript
TE1F4 000:039.092     Device entry modified: MCIMX6X4_M4
TE1F4 000:039.113       ChipInfo:
TE1F4 000:039.119         Script:          C:\Program Files (x86)\SEGGER\JLink_V614b\Devices\NXP\iMX6SoloX_Connect_CortexM4.JLinkScript
TE1F4 000:039.126     Device entry modified: MCIMX6G0
TE1F4 000:039.131       FlashBankInfo:
TE1F4 000:039.136         Name:            QSPI flash
TE1F4 000:039.166         BaseAddr:        0x60000000
TE1F4 000:039.208         LoaderInfo:
TE1F4 000:039.214           Name:            QSPI_flash
TE1F4 000:039.219           MaxSize:         0x02000000
TE1F4 000:039.225           Loader:          C:\Program Files (x86)\SEGGER\JLink_V614b\Devices\NXP\iMX6UL\NXP_iMX6UL_EVK_QSPI.elf
TE1F4 000:039.231           LoaderType:      FLASH_ALGO_TYPE_OPEN
TE1F4 000:039.237     Device entry modified: MCIMX6G1
TE1F4 000:039.242       FlashBankInfo:
TE1F4 000:039.247         Name:            QSPI flash
TE1F4 000:039.253         BaseAddr:        0x60000000
TE1F4 000:039.289         LoaderInfo:
TE1F4 000:039.295           Name:            QSPI_flash
TE1F4 000:039.301           MaxSize:         0x02000000
TE1F4 000:039.306           Loader:          C:\Program Files (x86)\SEGGER\JLink_V614b\Devices\NXP\iMX6UL\NXP_iMX6UL_EVK_QSPI.elf
TE1F4 000:039.312           LoaderType:      FLASH_ALGO_TYPE_OPEN
TE1F4 000:039.319     Device entry modified: MCIMX6G2
TE1F4 000:039.324       FlashBankInfo:
TE1F4 000:039.329         Name:            QSPI flash
TE1F4 000:039.334         BaseAddr:        0x60000000
TE1F4 000:039.374         LoaderInfo:
TE1F4 000:039.380           Name:            QSPI_flash
TE1F4 000:039.385           MaxSize:         0x02000000
TE1F4 000:039.391           Loader:          C:\Program Files (x86)\SEGGER\JLink_V614b\Devices\NXP\iMX6UL\NXP_iMX6UL_EVK_QSPI.elf
TE1F4 000:039.396           LoaderType:      FLASH_ALGO_TYPE_OPEN
TE1F4 000:039.403     Device entry modified: MCIMX6G3
TE1F4 000:039.408       FlashBankInfo:
TE1F4 000:039.413         Name:            QSPI flash
TE1F4 000:039.418         BaseAddr:        0x60000000
TE1F4 000:039.456         LoaderInfo:
TE1F4 000:039.462           Name:            QSPI_flash
TE1F4 000:039.467           MaxSize:         0x02000000
TE1F4 000:039.473           Loader:          C:\Program Files (x86)\SEGGER\JLink_V614b\Devices\NXP\iMX6UL\NXP_iMX6UL_EVK_QSPI.elf
TE1F4 000:039.478           LoaderType:      FLASH_ALGO_TYPE_OPEN
TE1F4 000:039.485     Device entry modified: MCIMX6Y0
TE1F4 000:039.490       FlashBankInfo:
TE1F4 000:039.495         Name:            QSPI flash
TE1F4 000:039.501         BaseAddr:        0x60000000
TE1F4 000:039.536         LoaderInfo:
TE1F4 000:039.542           Name:            QSPI_flash
TE1F4 000:039.548           MaxSize:         0x02000000
TE1F4 000:039.553           Loader:          C:\Program Files (x86)\SEGGER\JLink_V614b\Devices\NXP\iMX6UL\NXP_iMX6UL_EVK_QSPI.elf
TE1F4 000:039.559           LoaderType:      FLASH_ALGO_TYPE_OPEN
TE1F4 000:039.565     Device entry modified: MCIMX6Y1
TE1F4 000:039.569       FlashBankInfo:
TE1F4 000:039.575         Name:            QSPI flash
TE1F4 000:039.580         BaseAddr:        0x60000000
TE1F4 000:039.616         LoaderInfo:
TE1F4 000:039.622           Name:            QSPI_flash
TE1F4 000:039.627           MaxSize:         0x02000000
TE1F4 000:039.633           Loader:          C:\Program Files (x86)\SEGGER\JLink_V614b\Devices\NXP\iMX6UL\NXP_iMX6UL_EVK_QSPI.elf
TE1F4 000:039.639           LoaderType:      FLASH_ALGO_TYPE_OPEN
TE1F4 000:039.645     Device entry modified: MCIMX6Y2
TE1F4 000:039.649       FlashBankInfo:
TE1F4 000:039.655         Name:            QSPI flash
TE1F4 000:039.660         BaseAddr:        0x60000000
TE1F4 000:039.696         LoaderInfo:
TE1F4 000:039.703           Name:            QSPI_flash
TE1F4 000:039.708           MaxSize:         0x02000000
TE1F4 000:039.714           Loader:          C:\Program Files (x86)\SEGGER\JLink_V614b\Devices\NXP\iMX6UL\NXP_iMX6UL_EVK_QSPI.elf
TE1F4 000:039.719           LoaderType:      FLASH_ALGO_TYPE_OPEN
TE1F4 000:039.726     Device entry modified: MCIMX6Y7
TE1F4 000:039.731       FlashBankInfo:
TE1F4 000:039.736         Name:            QSPI flash
TE1F4 000:039.741         BaseAddr:        0x60000000
TE1F4 000:039.777         LoaderInfo:
TE1F4 000:039.783           Name:            QSPI_flash
TE1F4 000:039.789           MaxSize:         0x02000000
TE1F4 000:039.794           Loader:          C:\Program Files (x86)\SEGGER\JLink_V614b\Devices\NXP\iMX6UL\NXP_iMX6UL_EVK_QSPI.elf
TE1F4 000:039.800           LoaderType:      FLASH_ALGO_TYPE_OPEN
TE1F4 000:039.807     Device entry modified: CC3200
TE1F4 000:039.834       ChipInfo:
TE1F4 000:039.842         Script:          C:\Program Files (x86)\SEGGER\JLink_V614b\Devices\TI\TI_CC3200.JLinkScript
TE1F4 000:039.851     Device entry modified: BCM43907
TE1F4 000:039.875       ChipInfo:
TE1F4 000:039.881         Script:          C:\Program Files (x86)\SEGGER\JLink_V614b\Devices\Broadcom\BCM45907.JLinkScript
TE1F4 000:039.955 - 10.519ms returns 0x00
TE1F4 000:050.813 JLINK_ExecCommand("Device = STM32F105RC", ...). 
TE1F4 000:060.775   Device "STM32F105RC" selected.
TE1F4 000:061.302 - 10.464ms returns 0x00
TE1F4 000:061.325 JLINK_ExecCommand("DisableConnectionTimeout", ...). 
TE1F4 000:061.367 - 0.004ms returns 0x01
TE1F4 000:061.373 JLINK_GetHardwareVersion()
TE1F4 000:061.377 - 0.006ms returns 94000
TE1F4 000:061.386 JLINK_GetDLLVersion()
TE1F4 000:061.390 - 0.005ms returns 78604
TE1F4 000:061.394 JLINK_GetOEMString(...)
TE1F4 000:061.401 JLINK_GetFirmwareString(...)
TE1F4 000:061.406 - 0.006ms
TE1F4 000:084.371 JLINK_GetDLLVersion()
TE1F4 000:084.403 - 0.034ms returns 78604
TE1F4 000:084.409 JLINK_GetCompileDateTime()
TE1F4 000:084.413 - 0.005ms
TE1F4 000:092.552 JLINK_GetFirmwareString(...)
TE1F4 000:092.595 - 0.045ms
TE1F4 000:101.610 JLINK_GetHardwareVersion()
TE1F4 000:101.636 - 0.027ms returns 94000
TE1F4 000:112.641 JLINK_GetSN()
TE1F4 000:112.675 - 0.036ms returns 69406381
TE1F4 000:120.580 JLINK_GetOEMString(...)
TE1F4 000:140.314 JLINK_TIF_Select(JLINKARM_TIF_SWD)
TE1F4 000:141.066 - 0.766ms returns 0x00
TE1F4 000:141.087 JLINK_HasError()
TE1F4 000:141.101 JLINK_SetSpeed(5000)
TE1F4 000:141.227 - 0.135ms
TE1F4 000:141.243 JLINK_GetId()
TE1F4 000:151.708   InitTarget() start
TE1F4 000:151.741    J-Link Script File: Executing InitTarget()
TE1F4 000:160.581   SWD selected. Executing JTAG -> SWD switching sequence.
TE1F4 000:172.954   DAP initialized successfully.
TE1F4 000:187.884   InitTarget() end - Took 26.8ms
TE1F4 000:198.974   Found SW-DP with ID 0x1BA01477
TE1F4 000:210.495   DPIDR: 0x1BA01477
TE1F4 000:220.560   CoreSight SoC-400 or earlier
TE1F4 000:230.244   Scanning AP map to find all available APs
TE1F4 000:239.923   AP[1]: Stopped AP scan as end of AP map has been reached
TE1F4 000:249.320   AP[0]: AHB-AP (IDR: 0x14770011)
TE1F4 000:257.078   Iterating through AP map to find AHB-AP to use
TE1F4 000:268.616   AP[0]: Core found
TE1F4 000:276.775   AP[0]: AHB-AP ROM base: 0xE00FF000
TE1F4 000:285.718   CPUID register: 0x411FC231. Implementer code: 0x41 (ARM)
TE1F4 000:294.122   Found Cortex-M3 r1p1, Little endian.
TE1F4 000:294.635   -- Max. mem block: 0x00010E60
TE1F4 000:295.127   CPU_ReadMem(4 bytes @ 0xE000EDF0)
TE1F4 000:295.503   CPU_ReadMem(4 bytes @ 0xE0002000)
TE1F4 000:303.872   FPUnit: 6 code (BP) slots and 2 literal slots
TE1F4 000:303.901   CPU_ReadMem(4 bytes @ 0xE000EDFC)
TE1F4 000:304.420   CPU_WriteMem(4 bytes @ 0xE000EDFC)
TE1F4 000:304.813   CPU_ReadMem(4 bytes @ 0xE0001000)
TE1F4 000:305.169   CPU_WriteMem(4 bytes @ 0xE0001000)
TE1F4 000:305.561   CPU_ReadMem(4 bytes @ 0xE000ED88)
TE1F4 000:306.011   CPU_WriteMem(4 bytes @ 0xE000ED88)
TE1F4 000:306.488   CPU_ReadMem(4 bytes @ 0xE000ED88)
TE1F4 000:306.973   CPU_WriteMem(4 bytes @ 0xE000ED88)
TE1F4 000:317.351   CoreSight components:
TE1F4 000:326.437   ROMTbl[0] @ E00FF000
TE1F4 000:326.492   CPU_ReadMem(64 bytes @ 0xE00FF000)
TE1F4 000:327.552   CPU_ReadMem(32 bytes @ 0xE000EFE0)
TE1F4 000:335.897   [0][0]: E000E000 CID B105E00D PID 001BB000 SCS
TE1F4 000:335.925   CPU_ReadMem(32 bytes @ 0xE0001FE0)
TE1F4 000:347.876   [0][1]: E0001000 CID B105E00D PID 001BB002 DWT
TE1F4 000:347.923   CPU_ReadMem(32 bytes @ 0xE0002FE0)
TE1F4 000:358.065   [0][2]: E0002000 CID B105E00D PID 000BB003 FPB
TE1F4 000:358.123   CPU_ReadMem(32 bytes @ 0xE0000FE0)
TE1F4 000:368.213   [0][3]: E0000000 CID B105E00D PID 001BB001 ITM
TE1F4 000:368.251   CPU_ReadMem(32 bytes @ 0xE0040FE0)
TE1F4 000:376.927   [0][4]: E0040000 CID B105900D PID 001BB923 TPIU-Lite
TE1F4 000:376.986   CPU_ReadMem(32 bytes @ 0xE0041FE0)
TE1F4 000:392.546   [0][5]: E0041000 CID B105900D PID 101BB924 ETM-M3
TE1F4 000:392.947 - 251.714ms returns 0x1BA01477
TE1F4 000:392.972 JLINK_GetDLLVersion()
TE1F4 000:392.976 - 0.005ms returns 78604
TE1F4 000:392.981 JLINK_CORE_GetFound()
TE1F4 000:392.984 - 0.005ms returns 0x30000FF
TE1F4 000:393.034 JLINK_GetDebugInfo(0x100 = JLINKARM_ROM_TABLE_ADDR_INDEX)
TE1F4 000:393.040   Value=0xE00FF000
TE1F4 000:393.046 - 0.013ms returns 0
TE1F4 000:401.018 JLINK_GetDebugInfo(0x100 = JLINKARM_ROM_TABLE_ADDR_INDEX)
TE1F4 000:401.047   Value=0xE00FF000
TE1F4 000:401.053 - 0.036ms returns 0
TE1F4 000:401.058 JLINK_GetDebugInfo(0x101 = JLINKARM_DEBUG_INFO_ETM_ADDR_INDEX)
TE1F4 000:401.062   Value=0xE0041000
TE1F4 000:401.067 - 0.010ms returns 0
TE1F4 000:401.072 JLINK_ReadMemEx(0xE0041FD0, 0x20 Bytes, Flags = 0x02000004)
TE1F4 000:401.099   CPU_ReadMem(32 bytes @ 0xE0041FD0)
TE1F4 000:401.700   Data:  04 00 00 00 00 00 00 00 00 00 00 00 00 00 00 00 ...
TE1F4 000:401.712 - 0.641ms returns 32 (0x20)
TE1F4 000:401.718 JLINK_GetDebugInfo(0x102 = JLINKARM_DEBUG_INFO_MTB_ADDR_INDEX)
TE1F4 000:401.722   Value=0x00000000
TE1F4 000:401.727 - 0.011ms returns 0
TE1F4 000:401.731 JLINK_GetDebugInfo(0x103 = JLINKARM_DEBUG_INFO_TPIU_ADDR_INDEX)
TE1F4 000:401.735   Value=0xE0040000
TE1F4 000:401.740 - 0.010ms returns 0
TE1F4 000:401.744 JLINK_GetDebugInfo(0x104 = JLINKARM_DEBUG_INFO_ITM_ADDR_INDEX)
TE1F4 000:401.747   Value=0xE0000000
TE1F4 000:401.752 - 0.009ms returns 0
TE1F4 000:401.756 JLINK_GetDebugInfo(0x105 = JLINKARM_DEBUG_INFO_DWT_ADDR_INDEX)
TE1F4 000:401.760   Value=0xE0001000
TE1F4 000:401.764 - 0.009ms returns 0
TE1F4 000:401.768 JLINK_GetDebugInfo(0x106 = JLINKARM_DEBUG_INFO_FPB_ADDR_INDEX)
TE1F4 000:401.772   Value=0xE0002000
TE1F4 000:401.777 - 0.010ms returns 0
TE1F4 000:401.781 JLINK_GetDebugInfo(0x107 = JLINKARM_DEBUG_INFO_NVIC_ADDR_INDEX)
TE1F4 000:401.784   Value=0xE000E000
TE1F4 000:401.789 - 0.010ms returns 0
TE1F4 000:401.793 JLINK_GetDebugInfo(0x10C = JLINKARM_DEBUG_INFO_DBG_ADDR_INDEX)
TE1F4 000:401.796   Value=0xE000EDF0
TE1F4 000:401.801 - 0.009ms returns 0
TE1F4 000:401.805 JLINK_GetDebugInfo(0x01 = Unknown)
TE1F4 000:401.810   Value=0x00000000
TE1F4 000:401.814 - 0.011ms returns 0
TE1F4 000:401.818 JLINK_ReadMemU32(0xE000ED00, 0x1 Items)
TE1F4 000:401.827   CPU_ReadMem(4 bytes @ 0xE000ED00)
TE1F4 000:402.157   Data:  31 C2 1F 41
TE1F4 000:402.163   Debug reg: CPUID
TE1F4 000:402.168 - 0.351ms returns 1 (0x1)
TE1F4 000:402.173 JLINK_GetDebugInfo(0x10F = JLINKARM_DEBUG_INFO_HAS_CORTEX_M_SECURITY_EXT_INDEX)
TE1F4 000:402.177   Value=0x00000000
TE1F4 000:402.182 - 0.010ms returns 0
TE1F4 000:402.187 JLINK_HasError()
TE1F4 000:402.191 JLINK_SetResetType(JLINKARM_CM3_RESET_TYPE_NORMAL)
TE1F4 000:402.195 - 0.005ms returns JLINKARM_CM3_RESET_TYPE_NORMAL
TE1F4 000:402.200 JLINK_Reset()
TE1F4 000:402.211   CPU is running
TE1F4 000:402.216   CPU_WriteMem(4 bytes @ 0xE000EDF0)
TE1F4 000:402.550   CPU is running
TE1F4 000:402.556   CPU_WriteMem(4 bytes @ 0xE000EDFC)
TE1F4 000:411.334   Reset: Halt core after reset via DEMCR.VC_CORERESET.
TE1F4 000:419.408   Reset: Reset device via AIRCR.SYSRESETREQ.
TE1F4 000:419.493   CPU is running
TE1F4 000:419.506   CPU_WriteMem(4 bytes @ 0xE000ED0C)
TE1F4 000:473.222   CPU_ReadMem(4 bytes @ 0xE000EDF0)
TE1F4 000:473.649   CPU_ReadMem(4 bytes @ 0xE000EDF0)
TE1F4 000:477.024   CPU_WriteMem(4 bytes @ 0xE000EDFC)
TE1F4 000:482.779   CPU_ReadMem(4 bytes @ 0xE000EDF0)
TE1F4 000:485.756   CPU_WriteMem(4 bytes @ 0xE0002000)
TE1F4 000:486.063   CPU_ReadMem(4 bytes @ 0xE000EDFC)
TE1F4 000:486.343   CPU_ReadMem(4 bytes @ 0xE0001000)
TE1F4 000:486.739 - 84.554ms
TE1F4 000:486.777 JLINK_Halt()
TE1F4 000:486.785 - 0.010ms returns 0x00
TE1F4 000:486.851 JLINK_ReadMemU32(0xE000EDF0, 0x1 Items)
TE1F4 000:486.872   CPU_ReadMem(4 bytes @ 0xE000EDF0)
TE1F4 000:487.158   Data:  03 00 03 00
TE1F4 000:487.168   Debug reg: DHCSR
TE1F4 000:487.173 - 0.323ms returns 1 (0x1)
TE1F4 000:487.181 JLINK_WriteU32_64(0xE000EDF0, 0xA05F0003)
TE1F4 000:487.187   Debug reg: DHCSR
TE1F4 000:487.417   CPU_WriteMem(4 bytes @ 0xE000EDF0)
TE1F4 000:487.887 - 0.714ms returns 0 (0x00000000)
TE1F4 000:487.901 JLINK_WriteU32_64(0xE000EDFC, 0x01000000)
TE1F4 000:487.906   Debug reg: DEMCR
TE1F4 000:487.918   CPU_WriteMem(4 bytes @ 0xE000EDFC)
TE1F4 000:488.349 - 0.455ms returns 0 (0x00000000)
TE1F4 000:525.345 JLINK_GetHWStatus(...)
TE1F4 000:525.588 - 0.248ms returns 0
TE1F4 000:549.075 JLINK_GetNumBPUnits(Type = 0xFFFFFF00)
TE1F4 000:549.110 - 0.037ms returns 0x06
TE1F4 000:549.116 JLINK_GetNumBPUnits(Type = 0xF0)
TE1F4 000:549.120 - 0.005ms returns 0x2000
TE1F4 000:549.124 JLINK_GetNumWPUnits()
TE1F4 000:549.127 - 0.005ms returns 4
TE1F4 000:572.787 JLINK_GetSpeed()
TE1F4 000:572.820 - 0.036ms returns 4000
TE1F4 000:588.253 JLINK_ReadMemU32(0xE000E004, 0x1 Items)
TE1F4 000:588.298   CPU_ReadMem(4 bytes @ 0xE000E004)
TE1F4 000:588.698   Data:  02 00 00 00
TE1F4 000:588.738 - 0.487ms returns 1 (0x1)
TE1F4 000:588.746 JLINK_ReadMemU32(0xE000E004, 0x1 Items)
TE1F4 000:588.762   CPU_ReadMem(4 bytes @ 0xE000E004)
TE1F4 000:589.122   Data:  02 00 00 00
TE1F4 000:589.130 - 0.386ms returns 1 (0x1)
TE1F4 000:589.137 JLINK_WriteMemEx(0xE0001000, 0x0000001C Bytes, Flags = 0x02000004)
TE1F4 000:589.142   Data:  01 00 00 00 00 00 00 00 00 00 00 00 00 00 00 00 ...
TE1F4 000:589.156   CPU_WriteMem(28 bytes @ 0xE0001000)
TE1F4 000:589.577 - 0.443ms returns 0x1C
TE1F4 000:589.590 JLINK_Halt()
TE1F4 000:589.594 - 0.005ms returns 0x00
TE1F4 000:589.598 JLINK_IsHalted()
TE1F4 000:589.603 - 0.006ms returns TRUE
TE1F4 000:593.275 JLINK_WriteMem(0x20000000, 0x164 Bytes, ...)
TE1F4 000:593.295   Data:  00 BE 0A E0 0D 78 2D 06 68 40 08 24 40 00 00 D3 ...
TE1F4 000:593.571   CPU_WriteMem(356 bytes @ 0x20000000)
TE1F4 000:595.890 - 2.632ms returns 0x164
TE1F4 000:595.952 JLINK_HasError()
TE1F4 000:595.960 JLINK_WriteReg(R0, 0x08000000)
TE1F4 000:595.967 - 0.009ms returns 0
TE1F4 000:595.972 JLINK_WriteReg(R1, 0x007A1200)
TE1F4 000:595.976 - 0.006ms returns 0
TE1F4 000:595.980 JLINK_WriteReg(R2, 0x00000001)
TE1F4 000:595.984 - 0.005ms returns 0
TE1F4 000:595.989 JLINK_WriteReg(R3, 0x00000000)
TE1F4 000:595.992 - 0.005ms returns 0
TE1F4 000:595.997 JLINK_WriteReg(R4, 0x00000000)
TE1F4 000:596.000 - 0.005ms returns 0
TE1F4 000:596.005 JLINK_WriteReg(R5, 0x00000000)
TE1F4 000:596.009 - 0.005ms returns 0
TE1F4 000:596.013 JLINK_WriteReg(R6, 0x00000000)
TE1F4 000:596.017 - 0.005ms returns 0
TE1F4 000:596.021 JLINK_WriteReg(R7, 0x00000000)
TE1F4 000:596.025 - 0.005ms returns 0
TE1F4 000:596.029 JLINK_WriteReg(R8, 0x00000000)
TE1F4 000:596.038 - 0.010ms returns 0
TE1F4 000:596.042 JLINK_WriteReg(R9, 0x20000160)
TE1F4 000:596.046 - 0.005ms returns 0
TE1F4 000:596.051 JLINK_WriteReg(R10, 0x00000000)
TE1F4 000:596.055 - 0.005ms returns 0
TE1F4 000:596.059 JLINK_WriteReg(R11, 0x00000000)
TE1F4 000:596.063 - 0.005ms returns 0
TE1F4 000:596.067 JLINK_WriteReg(R12, 0x00000000)
TE1F4 000:596.071 - 0.005ms returns 0
TE1F4 000:596.075 JLINK_WriteReg(R13 (SP), 0x20000800)
TE1F4 000:596.080 - 0.006ms returns 0
TE1F4 000:596.085 JLINK_WriteReg(R14, 0x20000001)
TE1F4 000:596.091 - 0.009ms returns 0
TE1F4 000:596.096 JLINK_WriteReg(R15 (PC), 0x20000038)
TE1F4 000:596.102 - 0.007ms returns 0
TE1F4 000:596.106 JLINK_WriteReg(XPSR, 0x01000000)
TE1F4 000:596.110 - 0.005ms returns 0
TE1F4 000:596.114 JLINK_WriteReg(MSP, 0x20000800)
TE1F4 000:596.118 - 0.005ms returns 0
TE1F4 000:596.122 JLINK_WriteReg(PSP, 0x20000800)
TE1F4 000:596.126 - 0.005ms returns 0
TE1F4 000:596.131 JLINK_WriteReg(CFBP, 0x00000000)
TE1F4 000:596.134 - 0.005ms returns 0
TE1F4 000:596.139 JLINK_SetBPEx(Addr = 0x20000000, Type = 0xFFFFFFF2)
TE1F4 000:596.149   CPU_ReadMem(2 bytes @ 0x20000000)
TE1F4 000:596.503 - 0.366ms returns 0x00000001
TE1F4 000:596.510 JLINK_Go()
TE1F4 000:596.516   CPU_WriteMem(2 bytes @ 0x20000000)
TE1F4 000:596.820   CPU_ReadMem(4 bytes @ 0xE0001000)
TE1F4 000:597.094   CPU_WriteMem(4 bytes @ 0xE0002008)
TE1F4 000:597.100   CPU_WriteMem(4 bytes @ 0xE000200C)
TE1F4 000:597.106   CPU_WriteMem(4 bytes @ 0xE0002010)
TE1F4 000:597.111   CPU_WriteMem(4 bytes @ 0xE0002014)
TE1F4 000:597.117   CPU_WriteMem(4 bytes @ 0xE0002018)
TE1F4 000:597.122   CPU_WriteMem(4 bytes @ 0xE000201C)
TE1F4 000:598.493   CPU_WriteMem(4 bytes @ 0xE0001004)
TE1F4 000:601.426 - 4.923ms
TE1F4 000:601.438 JLINK_IsHalted()
TE1F4 000:604.142   CPU_ReadMem(2 bytes @ 0x20000000)
TE1F4 000:604.425 - 2.989ms returns TRUE
TE1F4 000:604.432 JLINK_ReadReg(R15 (PC))
TE1F4 000:604.438 - 0.008ms returns 0x20000000
TE1F4 000:604.443 JLINK_ClrBPEx(BPHandle = 0x00000001)
TE1F4 000:604.447 - 0.006ms returns 0x00
TE1F4 000:604.452 JLINK_ReadReg(R0)
TE1F4 000:604.456 - 0.005ms returns 0x00000000
TE1F4 000:604.715 JLINK_HasError()
TE1F4 000:604.723 JLINK_WriteReg(R0, 0x08000000)
TE1F4 000:604.728 - 0.007ms returns 0
TE1F4 000:604.733 JLINK_WriteReg(R1, 0x00000800)
TE1F4 000:604.737 - 0.005ms returns 0
TE1F4 000:604.741 JLINK_WriteReg(R2, 0x000000FF)
TE1F4 000:604.745 - 0.005ms returns 0
TE1F4 000:604.749 JLINK_WriteReg(R3, 0x00000000)
TE1F4 000:604.753 - 0.005ms returns 0
TE1F4 000:604.757 JLINK_WriteReg(R4, 0x00000000)
TE1F4 000:604.761 - 0.005ms returns 0
TE1F4 000:604.765 JLINK_WriteReg(R5, 0x00000000)
TE1F4 000:604.769 - 0.005ms returns 0
TE1F4 000:604.774 JLINK_WriteReg(R6, 0x00000000)
TE1F4 000:604.777 - 0.005ms returns 0
TE1F4 000:604.782 JLINK_WriteReg(R7, 0x00000000)
TE1F4 000:604.785 - 0.005ms returns 0
TE1F4 000:604.790 JLINK_WriteReg(R8, 0x00000000)
TE1F4 000:604.794 - 0.005ms returns 0
TE1F4 000:604.798 JLINK_WriteReg(R9, 0x20000160)
TE1F4 000:604.802 - 0.005ms returns 0
TE1F4 000:604.806 JLINK_WriteReg(R10, 0x00000000)
TE1F4 000:604.810 - 0.005ms returns 0
TE1F4 000:604.814 JLINK_WriteReg(R11, 0x00000000)
TE1F4 000:604.818 - 0.005ms returns 0
TE1F4 000:604.822 JLINK_WriteReg(R12, 0x00000000)
TE1F4 000:604.826 - 0.005ms returns 0
TE1F4 000:604.830 JLINK_WriteReg(R13 (SP), 0x20000800)
TE1F4 000:604.834 - 0.006ms returns 0
TE1F4 000:604.839 JLINK_WriteReg(R14, 0x20000001)
TE1F4 000:604.843 - 0.005ms returns 0
TE1F4 000:604.847 JLINK_WriteReg(R15 (PC), 0x20000020)
TE1F4 000:604.851 - 0.005ms returns 0
TE1F4 000:604.855 JLINK_WriteReg(XPSR, 0x01000000)
TE1F4 000:604.859 - 0.005ms returns 0
TE1F4 000:604.863 JLINK_WriteReg(MSP, 0x20000800)
TE1F4 000:604.867 - 0.005ms returns 0
TE1F4 000:604.871 JLINK_WriteReg(PSP, 0x20000800)
TE1F4 000:604.875 - 0.005ms returns 0
TE1F4 000:604.880 JLINK_WriteReg(CFBP, 0x00000000)
TE1F4 000:604.883 - 0.005ms returns 0
TE1F4 000:604.888 JLINK_SetBPEx(Addr = 0x20000000, Type = 0xFFFFFFF2)
TE1F4 000:604.892 - 0.006ms returns 0x00000002
TE1F4 000:604.897 JLINK_Go()
TE1F4 000:604.905   CPU_ReadMem(4 bytes @ 0xE0001000)
TE1F4 000:607.871 - 2.981ms
TE1F4 000:607.883 JLINK_IsHalted()
TE1F4 000:610.497   CPU_ReadMem(2 bytes @ 0x20000000)
TE1F4 000:610.851 - 2.978ms returns TRUE
TE1F4 000:610.870 JLINK_ReadReg(R15 (PC))
TE1F4 000:610.879 - 0.010ms returns 0x20000000
TE1F4 000:610.884 JLINK_ClrBPEx(BPHandle = 0x00000002)
TE1F4 000:610.889 - 0.006ms returns 0x00
TE1F4 000:610.894 JLINK_ReadReg(R0)
TE1F4 000:610.898 - 0.011ms returns 0x00000001
TE1F4 000:610.913 JLINK_HasError()
TE1F4 000:610.919 JLINK_WriteReg(R0, 0x08000000)
TE1F4 000:610.923 - 0.006ms returns 0
TE1F4 000:610.928 JLINK_WriteReg(R1, 0x00000800)
TE1F4 000:610.932 - 0.005ms returns 0
TE1F4 000:610.936 JLINK_WriteReg(R2, 0x000000FF)
TE1F4 000:610.940 - 0.005ms returns 0
TE1F4 000:610.945 JLINK_WriteReg(R3, 0x00000000)
TE1F4 000:610.949 - 0.005ms returns 0
TE1F4 000:610.953 JLINK_WriteReg(R4, 0x00000000)
TE1F4 000:610.957 - 0.005ms returns 0
TE1F4 000:610.961 JLINK_WriteReg(R5, 0x00000000)
TE1F4 000:610.965 - 0.005ms returns 0
TE1F4 000:610.969 JLINK_WriteReg(R6, 0x00000000)
TE1F4 000:610.973 - 0.005ms returns 0
TE1F4 000:610.977 JLINK_WriteReg(R7, 0x00000000)
TE1F4 000:610.981 - 0.005ms returns 0
TE1F4 000:610.985 JLINK_WriteReg(R8, 0x00000000)
TE1F4 000:610.989 - 0.005ms returns 0
TE1F4 000:610.993 JLINK_WriteReg(R9, 0x20000160)
TE1F4 000:610.997 - 0.005ms returns 0
TE1F4 000:611.001 JLINK_WriteReg(R10, 0x00000000)
TE1F4 000:611.005 - 0.005ms returns 0
TE1F4 000:611.010 JLINK_WriteReg(R11, 0x00000000)
TE1F4 000:611.013 - 0.005ms returns 0
TE1F4 000:611.018 JLINK_WriteReg(R12, 0x00000000)
TE1F4 000:611.021 - 0.005ms returns 0
TE1F4 000:611.026 JLINK_WriteReg(R13 (SP), 0x20000800)
TE1F4 000:611.030 - 0.006ms returns 0
TE1F4 000:611.034 JLINK_WriteReg(R14, 0x20000001)
TE1F4 000:611.038 - 0.005ms returns 0
TE1F4 000:611.042 JLINK_WriteReg(R15 (PC), 0x200000B6)
TE1F4 000:611.046 - 0.005ms returns 0
TE1F4 000:611.051 JLINK_WriteReg(XPSR, 0x01000000)
TE1F4 000:611.055 - 0.005ms returns 0
TE1F4 000:611.059 JLINK_WriteReg(MSP, 0x20000800)
TE1F4 000:611.063 - 0.005ms returns 0
TE1F4 000:611.067 JLINK_WriteReg(PSP, 0x20000800)
TE1F4 000:611.071 - 0.005ms returns 0
TE1F4 000:611.075 JLINK_WriteReg(CFBP, 0x00000000)
TE1F4 000:611.079 - 0.005ms returns 0
TE1F4 000:611.084 JLINK_SetBPEx(Addr = 0x20000000, Type = 0xFFFFFFF2)
TE1F4 000:611.089 - 0.007ms returns 0x00000003
TE1F4 000:611.094 JLINK_Go()
TE1F4 000:611.104   CPU_ReadMem(4 bytes @ 0xE0001000)
TE1F4 000:614.234 - 3.146ms
TE1F4 000:614.251 JLINK_IsHalted()
TE1F4 000:614.539 - 0.290ms returns FALSE
TE1F4 000:614.547 JLINK_HasError()
TE1F4 000:629.358 JLINK_IsHalted()
TE1F4 000:629.763 - 0.409ms returns FALSE
TE1F4 000:629.773 JLINK_HasError()
TE1F4 000:631.407 JLINK_IsHalted()
TE1F4 000:631.761 - 0.366ms returns FALSE
TE1F4 000:631.786 JLINK_HasError()
TE1F4 000:633.779 JLINK_IsHalted()
TE1F4 000:634.158 - 0.385ms returns FALSE
TE1F4 000:634.169 JLINK_HasError()
TE1F4 000:636.142 JLINK_IsHalted()
TE1F4 000:638.941   CPU_ReadMem(2 bytes @ 0x20000000)
TE1F4 000:639.319 - 3.185ms returns TRUE
TE1F4 000:639.333 JLINK_ReadReg(R15 (PC))
TE1F4 000:639.341 - 0.010ms returns 0x20000000
TE1F4 000:639.346 JLINK_ClrBPEx(BPHandle = 0x00000003)
TE1F4 000:639.351 - 0.006ms returns 0x00
TE1F4 000:639.356 JLINK_ReadReg(R0)
TE1F4 000:639.360 - 0.006ms returns 0x00000000
TE1F4 000:639.791 JLINK_HasError()
TE1F4 000:639.802 JLINK_WriteReg(R0, 0x08000800)
TE1F4 000:639.808 - 0.008ms returns 0
TE1F4 000:639.813 JLINK_WriteReg(R1, 0x00000800)
TE1F4 000:639.817 - 0.005ms returns 0
TE1F4 000:639.822 JLINK_WriteReg(R2, 0x000000FF)
TE1F4 000:639.826 - 0.005ms returns 0
TE1F4 000:639.830 JLINK_WriteReg(R3, 0x00000000)
TE1F4 000:639.834 - 0.005ms returns 0
TE1F4 000:639.838 JLINK_WriteReg(R4, 0x00000000)
TE1F4 000:639.842 - 0.005ms returns 0
TE1F4 000:639.846 JLINK_WriteReg(R5, 0x00000000)
TE1F4 000:639.850 - 0.005ms returns 0
TE1F4 000:639.855 JLINK_WriteReg(R6, 0x00000000)
TE1F4 000:639.858 - 0.005ms returns 0
TE1F4 000:639.863 JLINK_WriteReg(R7, 0x00000000)
TE1F4 000:639.866 - 0.005ms returns 0
TE1F4 000:639.871 JLINK_WriteReg(R8, 0x00000000)
TE1F4 000:639.875 - 0.005ms returns 0
TE1F4 000:639.879 JLINK_WriteReg(R9, 0x20000160)
TE1F4 000:639.883 - 0.005ms returns 0
TE1F4 000:639.887 JLINK_WriteReg(R10, 0x00000000)
TE1F4 000:639.891 - 0.005ms returns 0
TE1F4 000:639.895 JLINK_WriteReg(R11, 0x00000000)
TE1F4 000:639.899 - 0.005ms returns 0
TE1F4 000:639.938 JLINK_WriteReg(R12, 0x00000000)
TE1F4 000:639.949 - 0.013ms returns 0
TE1F4 000:639.954 JLINK_WriteReg(R13 (SP), 0x20000800)
TE1F4 000:639.959 - 0.006ms returns 0
TE1F4 000:639.963 JLINK_WriteReg(R14, 0x20000001)
TE1F4 000:639.967 - 0.005ms returns 0
TE1F4 000:639.971 JLINK_WriteReg(R15 (PC), 0x20000020)
TE1F4 000:639.975 - 0.005ms returns 0
TE1F4 000:639.980 JLINK_WriteReg(XPSR, 0x01000000)
TE1F4 000:639.984 - 0.005ms returns 0
TE1F4 000:639.988 JLINK_WriteReg(MSP, 0x20000800)
TE1F4 000:639.992 - 0.005ms returns 0
TE1F4 000:639.996 JLINK_WriteReg(PSP, 0x20000800)
TE1F4 000:640.000 - 0.005ms returns 0
TE1F4 000:640.004 JLINK_WriteReg(CFBP, 0x00000000)
TE1F4 000:640.008 - 0.005ms returns 0
TE1F4 000:640.012 JLINK_SetBPEx(Addr = 0x20000000, Type = 0xFFFFFFF2)
TE1F4 000:640.018 - 0.006ms returns 0x00000004
TE1F4 000:640.022 JLINK_Go()
TE1F4 000:640.034   CPU_ReadMem(4 bytes @ 0xE0001000)
TE1F4 000:642.983 - 2.965ms
TE1F4 000:642.992 JLINK_IsHalted()
TE1F4 000:645.682   CPU_ReadMem(2 bytes @ 0x20000000)
TE1F4 000:646.010 - 3.019ms returns TRUE
TE1F4 000:646.016 JLINK_ReadReg(R15 (PC))
TE1F4 000:646.021 - 0.007ms returns 0x20000000
TE1F4 000:646.026 JLINK_ClrBPEx(BPHandle = 0x00000004)
TE1F4 000:646.030 - 0.005ms returns 0x00
TE1F4 000:646.035 JLINK_ReadReg(R0)
TE1F4 000:646.039 - 0.005ms returns 0x00000001
TE1F4 000:646.044 JLINK_HasError()
TE1F4 000:646.049 JLINK_WriteReg(R0, 0x08000800)
TE1F4 000:646.053 - 0.006ms returns 0
TE1F4 000:646.058 JLINK_WriteReg(R1, 0x00000800)
TE1F4 000:646.061 - 0.005ms returns 0
TE1F4 000:646.066 JLINK_WriteReg(R2, 0x000000FF)
TE1F4 000:646.070 - 0.005ms returns 0
TE1F4 000:646.074 JLINK_WriteReg(R3, 0x00000000)
TE1F4 000:646.078 - 0.005ms returns 0
TE1F4 000:646.082 JLINK_WriteReg(R4, 0x00000000)
TE1F4 000:646.086 - 0.005ms returns 0
TE1F4 000:646.090 JLINK_WriteReg(R5, 0x00000000)
TE1F4 000:646.094 - 0.005ms returns 0
TE1F4 000:646.098 JLINK_WriteReg(R6, 0x00000000)
TE1F4 000:646.102 - 0.005ms returns 0
TE1F4 000:646.106 JLINK_WriteReg(R7, 0x00000000)
TE1F4 000:646.110 - 0.005ms returns 0
TE1F4 000:646.114 JLINK_WriteReg(R8, 0x00000000)
TE1F4 000:646.119 - 0.005ms returns 0
TE1F4 000:646.123 JLINK_WriteReg(R9, 0x20000160)
TE1F4 000:646.127 - 0.005ms returns 0
TE1F4 000:646.131 JLINK_WriteReg(R10, 0x00000000)
TE1F4 000:646.135 - 0.005ms returns 0
TE1F4 000:646.139 JLINK_WriteReg(R11, 0x00000000)
TE1F4 000:646.143 - 0.005ms returns 0
TE1F4 000:646.147 JLINK_WriteReg(R12, 0x00000000)
TE1F4 000:646.151 - 0.005ms returns 0
TE1F4 000:646.155 JLINK_WriteReg(R13 (SP), 0x20000800)
TE1F4 000:646.159 - 0.006ms returns 0
TE1F4 000:646.164 JLINK_WriteReg(R14, 0x20000001)
TE1F4 000:646.167 - 0.005ms returns 0
TE1F4 000:646.172 JLINK_WriteReg(R15 (PC), 0x200000B6)
TE1F4 000:646.176 - 0.005ms returns 0
TE1F4 000:646.180 JLINK_WriteReg(XPSR, 0x01000000)
TE1F4 000:646.184 - 0.005ms returns 0
TE1F4 000:646.188 JLINK_WriteReg(MSP, 0x20000800)
TE1F4 000:646.192 - 0.005ms returns 0
TE1F4 000:646.196 JLINK_WriteReg(PSP, 0x20000800)
TE1F4 000:646.200 - 0.005ms returns 0
TE1F4 000:646.204 JLINK_WriteReg(CFBP, 0x00000000)
TE1F4 000:646.208 - 0.005ms returns 0
TE1F4 000:646.213 JLINK_SetBPEx(Addr = 0x20000000, Type = 0xFFFFFFF2)
TE1F4 000:646.217 - 0.006ms returns 0x00000005
TE1F4 000:646.221 JLINK_Go()
TE1F4 000:646.229   CPU_ReadMem(4 bytes @ 0xE0001000)
TE1F4 000:649.431 - 3.220ms
TE1F4 000:649.446 JLINK_IsHalted()
TE1F4 000:649.936 - 0.495ms returns FALSE
TE1F4 000:649.947 JLINK_HasError()
TE1F4 000:653.792 JLINK_IsHalted()
TE1F4 000:654.139 - 0.350ms returns FALSE
TE1F4 000:654.146 JLINK_HasError()
TE1F4 000:655.828 JLINK_IsHalted()
TE1F4 000:656.155 - 0.334ms returns FALSE
TE1F4 000:656.167 JLINK_HasError()
TE1F4 000:657.864 JLINK_IsHalted()
TE1F4 000:658.195 - 0.333ms returns FALSE
TE1F4 000:658.201 JLINK_HasError()
TE1F4 000:659.862 JLINK_IsHalted()
TE1F4 000:660.184 - 0.324ms returns FALSE
TE1F4 000:660.190 JLINK_HasError()
TE1F4 000:661.858 JLINK_IsHalted()
TE1F4 000:662.150 - 0.294ms returns FALSE
TE1F4 000:662.156 JLINK_HasError()
TE1F4 000:664.049 JLINK_IsHalted()
TE1F4 000:664.634 - 0.594ms returns FALSE
TE1F4 000:664.649 JLINK_HasError()
TE1F4 000:666.011 JLINK_IsHalted()
TE1F4 000:666.458 - 0.458ms returns FALSE
TE1F4 000:666.477 JLINK_HasError()
TE1F4 000:668.123 JLINK_IsHalted()
TE1F4 000:668.578 - 0.464ms returns FALSE
TE1F4 000:668.592 JLINK_HasError()
TE1F4 000:670.114 JLINK_IsHalted()
TE1F4 000:670.632 - 0.526ms returns FALSE
TE1F4 000:670.645 JLINK_HasError()
TE1F4 000:672.129 JLINK_IsHalted()
TE1F4 000:675.411   CPU_ReadMem(2 bytes @ 0x20000000)
TE1F4 000:675.821 - 3.700ms returns TRUE
TE1F4 000:675.835 JLINK_ReadReg(R15 (PC))
TE1F4 000:675.842 - 0.009ms returns 0x20000000
TE1F4 000:675.847 JLINK_ClrBPEx(BPHandle = 0x00000005)
TE1F4 000:675.852 - 0.006ms returns 0x00
TE1F4 000:675.857 JLINK_ReadReg(R0)
TE1F4 000:675.861 - 0.005ms returns 0x00000000
TE1F4 000:676.396 JLINK_HasError()
TE1F4 000:676.404 JLINK_WriteReg(R0, 0x08001000)
TE1F4 000:676.410 - 0.007ms returns 0
TE1F4 000:676.415 JLINK_WriteReg(R1, 0x00000800)
TE1F4 000:676.418 - 0.005ms returns 0
TE1F4 000:676.423 JLINK_WriteReg(R2, 0x000000FF)
TE1F4 000:676.426 - 0.005ms returns 0
TE1F4 000:676.430 JLINK_WriteReg(R3, 0x00000000)
TE1F4 000:676.434 - 0.005ms returns 0
TE1F4 000:676.438 JLINK_WriteReg(R4, 0x00000000)
TE1F4 000:676.441 - 0.005ms returns 0
TE1F4 000:676.445 JLINK_WriteReg(R5, 0x00000000)
TE1F4 000:676.449 - 0.005ms returns 0
TE1F4 000:676.453 JLINK_WriteReg(R6, 0x00000000)
TE1F4 000:676.456 - 0.005ms returns 0
TE1F4 000:676.460 JLINK_WriteReg(R7, 0x00000000)
TE1F4 000:676.464 - 0.005ms returns 0
TE1F4 000:676.468 JLINK_WriteReg(R8, 0x00000000)
TE1F4 000:676.472 - 0.005ms returns 0
TE1F4 000:676.476 JLINK_WriteReg(R9, 0x20000160)
TE1F4 000:676.479 - 0.005ms returns 0
TE1F4 000:676.483 JLINK_WriteReg(R10, 0x00000000)
TE1F4 000:676.487 - 0.005ms returns 0
TE1F4 000:676.491 JLINK_WriteReg(R11, 0x00000000)
TE1F4 000:676.494 - 0.005ms returns 0
TE1F4 000:676.499 JLINK_WriteReg(R12, 0x00000000)
TE1F4 000:676.502 - 0.005ms returns 0
TE1F4 000:676.506 JLINK_WriteReg(R13 (SP), 0x20000800)
TE1F4 000:676.510 - 0.006ms returns 0
TE1F4 000:676.514 JLINK_WriteReg(R14, 0x20000001)
TE1F4 000:676.518 - 0.005ms returns 0
TE1F4 000:676.522 JLINK_WriteReg(R15 (PC), 0x20000020)
TE1F4 000:676.526 - 0.005ms returns 0
TE1F4 000:676.530 JLINK_WriteReg(XPSR, 0x01000000)
TE1F4 000:676.533 - 0.005ms returns 0
TE1F4 000:676.537 JLINK_WriteReg(MSP, 0x20000800)
TE1F4 000:676.541 - 0.005ms returns 0
TE1F4 000:676.545 JLINK_WriteReg(PSP, 0x20000800)
TE1F4 000:676.548 - 0.005ms returns 0
TE1F4 000:676.552 JLINK_WriteReg(CFBP, 0x00000000)
TE1F4 000:676.556 - 0.005ms returns 0
TE1F4 000:676.560 JLINK_SetBPEx(Addr = 0x20000000, Type = 0xFFFFFFF2)
TE1F4 000:676.565 - 0.006ms returns 0x00000006
TE1F4 000:676.569 JLINK_Go()
TE1F4 000:676.580   CPU_ReadMem(4 bytes @ 0xE0001000)
TE1F4 000:680.189 - 3.628ms
TE1F4 000:680.203 JLINK_IsHalted()
TE1F4 000:682.952   CPU_ReadMem(2 bytes @ 0x20000000)
TE1F4 000:683.511 - 3.317ms returns TRUE
TE1F4 000:683.526 JLINK_ReadReg(R15 (PC))
TE1F4 000:683.532 - 0.008ms returns 0x20000000
TE1F4 000:683.537 JLINK_ClrBPEx(BPHandle = 0x00000006)
TE1F4 000:683.541 - 0.005ms returns 0x00
TE1F4 000:683.546 JLINK_ReadReg(R0)
TE1F4 000:683.549 - 0.005ms returns 0x00000001
TE1F4 000:683.554 JLINK_HasError()
TE1F4 000:683.558 JLINK_WriteReg(R0, 0x08001000)
TE1F4 000:683.562 - 0.005ms returns 0
TE1F4 000:683.567 JLINK_WriteReg(R1, 0x00000800)
TE1F4 000:683.570 - 0.005ms returns 0
TE1F4 000:683.574 JLINK_WriteReg(R2, 0x000000FF)
TE1F4 000:683.578 - 0.005ms returns 0
TE1F4 000:683.582 JLINK_WriteReg(R3, 0x00000000)
TE1F4 000:683.585 - 0.005ms returns 0
TE1F4 000:683.589 JLINK_WriteReg(R4, 0x00000000)
TE1F4 000:683.593 - 0.005ms returns 0
TE1F4 000:683.597 JLINK_WriteReg(R5, 0x00000000)
TE1F4 000:683.600 - 0.005ms returns 0
TE1F4 000:683.604 JLINK_WriteReg(R6, 0x00000000)
TE1F4 000:683.608 - 0.005ms returns 0
TE1F4 000:683.612 JLINK_WriteReg(R7, 0x00000000)
TE1F4 000:683.615 - 0.007ms returns 0
TE1F4 000:683.624 JLINK_WriteReg(R8, 0x00000000)
TE1F4 000:683.627 - 0.005ms returns 0
TE1F4 000:683.631 JLINK_WriteReg(R9, 0x20000160)
TE1F4 000:683.635 - 0.005ms returns 0
TE1F4 000:683.639 JLINK_WriteReg(R10, 0x00000000)
TE1F4 000:683.643 - 0.005ms returns 0
TE1F4 000:683.647 JLINK_WriteReg(R11, 0x00000000)
TE1F4 000:683.650 - 0.005ms returns 0
TE1F4 000:683.654 JLINK_WriteReg(R12, 0x00000000)
TE1F4 000:683.658 - 0.005ms returns 0
TE1F4 000:683.662 JLINK_WriteReg(R13 (SP), 0x20000800)
TE1F4 000:683.665 - 0.005ms returns 0
TE1F4 000:683.669 JLINK_WriteReg(R14, 0x20000001)
TE1F4 000:683.673 - 0.005ms returns 0
TE1F4 000:683.677 JLINK_WriteReg(R15 (PC), 0x200000B6)
TE1F4 000:683.681 - 0.005ms returns 0
TE1F4 000:683.684 JLINK_WriteReg(XPSR, 0x01000000)
TE1F4 000:683.688 - 0.005ms returns 0
TE1F4 000:683.692 JLINK_WriteReg(MSP, 0x20000800)
TE1F4 000:683.696 - 0.005ms returns 0
TE1F4 000:683.700 JLINK_WriteReg(PSP, 0x20000800)
TE1F4 000:683.703 - 0.005ms returns 0
TE1F4 000:683.707 JLINK_WriteReg(CFBP, 0x00000000)
TE1F4 000:683.711 - 0.005ms returns 0
TE1F4 000:683.715 JLINK_SetBPEx(Addr = 0x20000000, Type = 0xFFFFFFF2)
TE1F4 000:683.719 - 0.005ms returns 0x00000007
TE1F4 000:683.723 JLINK_Go()
TE1F4 000:683.733   CPU_ReadMem(4 bytes @ 0xE0001000)
TE1F4 000:687.090 - 3.374ms
TE1F4 000:687.103 JLINK_IsHalted()
TE1F4 000:687.576 - 0.475ms returns FALSE
TE1F4 000:687.581 JLINK_HasError()
TE1F4 000:689.103 JLINK_IsHalted()
TE1F4 000:689.475 - 0.374ms returns FALSE
TE1F4 000:689.480 JLINK_HasError()
TE1F4 000:691.058 JLINK_IsHalted()
TE1F4 000:691.394 - 0.338ms returns FALSE
TE1F4 000:691.399 JLINK_HasError()
TE1F4 000:693.106 JLINK_IsHalted()
TE1F4 000:693.528 - 0.424ms returns FALSE
TE1F4 000:693.533 JLINK_HasError()
TE1F4 000:695.112 JLINK_IsHalted()
TE1F4 000:695.578 - 0.469ms returns FALSE
TE1F4 000:695.584 JLINK_HasError()
TE1F4 000:697.139 JLINK_IsHalted()
TE1F4 000:697.532 - 0.396ms returns FALSE
TE1F4 000:697.541 JLINK_HasError()
TE1F4 000:699.110 JLINK_IsHalted()
TE1F4 000:699.532 - 0.426ms returns FALSE
TE1F4 000:699.541 JLINK_HasError()
TE1F4 000:701.115 JLINK_IsHalted()
TE1F4 000:701.548 - 0.438ms returns FALSE
TE1F4 000:701.560 JLINK_HasError()
TE1F4 000:703.598 JLINK_IsHalted()
TE1F4 000:703.970 - 0.378ms returns FALSE
TE1F4 000:703.982 JLINK_HasError()
TE1F4 000:705.843 JLINK_IsHalted()
TE1F4 000:706.209 - 0.371ms returns FALSE
TE1F4 000:706.222 JLINK_HasError()
TE1F4 000:707.873 JLINK_IsHalted()
TE1F4 000:708.238 - 0.370ms returns FALSE
TE1F4 000:708.253 JLINK_HasError()
TE1F4 000:709.869 JLINK_IsHalted()
TE1F4 000:712.532   CPU_ReadMem(2 bytes @ 0x20000000)
TE1F4 000:712.933 - 3.078ms returns TRUE
TE1F4 000:712.961 JLINK_ReadReg(R15 (PC))
TE1F4 000:712.979 - 0.023ms returns 0x20000000
TE1F4 000:712.993 JLINK_ClrBPEx(BPHandle = 0x00000007)
TE1F4 000:713.006 - 0.018ms returns 0x00
TE1F4 000:713.019 JLINK_ReadReg(R0)
TE1F4 000:713.032 - 0.017ms returns 0x00000000
TE1F4 000:714.100 JLINK_HasError()
TE1F4 000:714.120 JLINK_WriteReg(R0, 0x08001800)
TE1F4 000:714.131 - 0.014ms returns 0
TE1F4 000:714.140 JLINK_WriteReg(R1, 0x00000800)
TE1F4 000:714.148 - 0.011ms returns 0
TE1F4 000:714.156 JLINK_WriteReg(R2, 0x000000FF)
TE1F4 000:714.164 - 0.010ms returns 0
TE1F4 000:714.172 JLINK_WriteReg(R3, 0x00000000)
TE1F4 000:714.180 - 0.011ms returns 0
TE1F4 000:714.189 JLINK_WriteReg(R4, 0x00000000)
TE1F4 000:714.196 - 0.011ms returns 0
TE1F4 000:714.205 JLINK_WriteReg(R5, 0x00000000)
TE1F4 000:714.213 - 0.011ms returns 0
TE1F4 000:714.221 JLINK_WriteReg(R6, 0x00000000)
TE1F4 000:714.229 - 0.010ms returns 0
TE1F4 000:714.237 JLINK_WriteReg(R7, 0x00000000)
TE1F4 000:714.245 - 0.010ms returns 0
TE1F4 000:714.253 JLINK_WriteReg(R8, 0x00000000)
TE1F4 000:714.261 - 0.011ms returns 0
TE1F4 000:714.269 JLINK_WriteReg(R9, 0x20000160)
TE1F4 000:714.276 - 0.011ms returns 0
TE1F4 000:714.285 JLINK_WriteReg(R10, 0x00000000)
TE1F4 000:714.293 - 0.011ms returns 0
TE1F4 000:714.302 JLINK_WriteReg(R11, 0x00000000)
TE1F4 000:714.309 - 0.013ms returns 0
TE1F4 000:714.323 JLINK_WriteReg(R12, 0x00000000)
TE1F4 000:714.330 - 0.011ms returns 0
TE1F4 000:714.339 JLINK_WriteReg(R13 (SP), 0x20000800)
TE1F4 000:714.348 - 0.012ms returns 0
TE1F4 000:714.356 JLINK_WriteReg(R14, 0x20000001)
TE1F4 000:714.364 - 0.011ms returns 0
TE1F4 000:714.373 JLINK_WriteReg(R15 (PC), 0x20000020)
TE1F4 000:714.380 - 0.011ms returns 0
TE1F4 000:714.389 JLINK_WriteReg(XPSR, 0x01000000)
TE1F4 000:714.397 - 0.015ms returns 0
TE1F4 000:714.409 JLINK_WriteReg(MSP, 0x20000800)
TE1F4 000:714.416 - 0.010ms returns 0
TE1F4 000:714.423 JLINK_WriteReg(PSP, 0x20000800)
TE1F4 000:714.430 - 0.010ms returns 0
TE1F4 000:714.438 JLINK_WriteReg(CFBP, 0x00000000)
TE1F4 000:714.445 - 0.010ms returns 0
TE1F4 000:714.453 JLINK_SetBPEx(Addr = 0x20000000, Type = 0xFFFFFFF2)
TE1F4 000:714.461 - 0.011ms returns 0x00000008
TE1F4 000:714.469 JLINK_Go()
TE1F4 000:714.486   CPU_ReadMem(4 bytes @ 0xE0001000)
TE1F4 000:717.442 - 2.977ms
TE1F4 000:717.460 JLINK_IsHalted()
TE1F4 000:720.103   CPU_ReadMem(2 bytes @ 0x20000000)
TE1F4 000:720.443 - 2.988ms returns TRUE
TE1F4 000:720.461 JLINK_ReadReg(R15 (PC))
TE1F4 000:720.472 - 0.014ms returns 0x20000000
TE1F4 000:720.489 JLINK_ClrBPEx(BPHandle = 0x00000008)
TE1F4 000:720.498 - 0.013ms returns 0x00
TE1F4 000:720.555 JLINK_ReadReg(R0)
TE1F4 000:720.567 - 0.015ms returns 0x00000001
TE1F4 000:720.577 JLINK_HasError()
TE1F4 000:720.587 JLINK_WriteReg(R0, 0x08001800)
TE1F4 000:720.596 - 0.013ms returns 0
TE1F4 000:720.606 JLINK_WriteReg(R1, 0x00000800)
TE1F4 000:720.614 - 0.012ms returns 0
TE1F4 000:720.624 JLINK_WriteReg(R2, 0x000000FF)
TE1F4 000:720.632 - 0.012ms returns 0
TE1F4 000:720.642 JLINK_WriteReg(R3, 0x00000000)
TE1F4 000:720.650 - 0.012ms returns 0
TE1F4 000:720.660 JLINK_WriteReg(R4, 0x00000000)
TE1F4 000:720.668 - 0.012ms returns 0
TE1F4 000:720.677 JLINK_WriteReg(R5, 0x00000000)
TE1F4 000:720.686 - 0.012ms returns 0
TE1F4 000:720.695 JLINK_WriteReg(R6, 0x00000000)
TE1F4 000:720.703 - 0.012ms returns 0
TE1F4 000:720.713 JLINK_WriteReg(R7, 0x00000000)
TE1F4 000:720.722 - 0.012ms returns 0
TE1F4 000:720.731 JLINK_WriteReg(R8, 0x00000000)
TE1F4 000:720.740 - 0.012ms returns 0
TE1F4 000:720.749 JLINK_WriteReg(R9, 0x20000160)
TE1F4 000:720.757 - 0.011ms returns 0
TE1F4 000:720.767 JLINK_WriteReg(R10, 0x00000000)
TE1F4 000:720.775 - 0.012ms returns 0
TE1F4 000:720.784 JLINK_WriteReg(R11, 0x00000000)
TE1F4 000:720.793 - 0.012ms returns 0
TE1F4 000:720.802 JLINK_WriteReg(R12, 0x00000000)
TE1F4 000:720.810 - 0.012ms returns 0
TE1F4 000:720.820 JLINK_WriteReg(R13 (SP), 0x20000800)
TE1F4 000:720.829 - 0.012ms returns 0
TE1F4 000:720.838 JLINK_WriteReg(R14, 0x20000001)
TE1F4 000:720.847 - 0.012ms returns 0
TE1F4 000:720.856 JLINK_WriteReg(R15 (PC), 0x200000B6)
TE1F4 000:720.865 - 0.012ms returns 0
TE1F4 000:720.874 JLINK_WriteReg(XPSR, 0x01000000)
TE1F4 000:720.883 - 0.014ms returns 0
TE1F4 000:720.894 JLINK_WriteReg(MSP, 0x20000800)
TE1F4 000:720.902 - 0.011ms returns 0
TE1F4 000:720.911 JLINK_WriteReg(PSP, 0x20000800)
TE1F4 000:720.919 - 0.011ms returns 0
TE1F4 000:720.928 JLINK_WriteReg(CFBP, 0x00000000)
TE1F4 000:720.936 - 0.011ms returns 0
TE1F4 000:720.945 JLINK_SetBPEx(Addr = 0x20000000, Type = 0xFFFFFFF2)
TE1F4 000:720.954 - 0.013ms returns 0x00000009
TE1F4 000:720.963 JLINK_Go()
TE1F4 000:720.978   CPU_ReadMem(4 bytes @ 0xE0001000)
TE1F4 000:723.998 - 3.045ms
TE1F4 000:724.016 JLINK_IsHalted()
TE1F4 000:724.351 - 0.338ms returns FALSE
TE1F4 000:724.360 JLINK_HasError()
TE1F4 000:727.957 JLINK_IsHalted()
TE1F4 000:728.450 - 0.498ms returns FALSE
TE1F4 000:728.460 JLINK_HasError()
TE1F4 000:729.921 JLINK_IsHalted()
TE1F4 000:730.224 - 0.305ms returns FALSE
TE1F4 000:730.231 JLINK_HasError()
TE1F4 000:731.904 JLINK_IsHalted()
TE1F4 000:732.222 - 0.322ms returns FALSE
TE1F4 000:732.231 JLINK_HasError()
TE1F4 000:733.905 JLINK_IsHalted()
TE1F4 000:734.206 - 0.304ms returns FALSE
TE1F4 000:734.214 JLINK_HasError()
TE1F4 000:735.898 JLINK_IsHalted()
TE1F4 000:736.231 - 0.339ms returns FALSE
TE1F4 000:736.245 JLINK_HasError()
TE1F4 000:738.192 JLINK_IsHalted()
TE1F4 000:738.541 - 0.356ms returns FALSE
TE1F4 000:738.554 JLINK_HasError()
TE1F4 000:740.059 JLINK_IsHalted()
TE1F4 000:740.407 - 0.351ms returns FALSE
TE1F4 000:740.416 JLINK_HasError()
TE1F4 000:742.476 JLINK_IsHalted()
TE1F4 000:742.813 - 0.341ms returns FALSE
TE1F4 000:742.823 JLINK_HasError()
TE1F4 000:744.482 JLINK_IsHalted()
TE1F4 000:744.824 - 0.346ms returns FALSE
TE1F4 000:744.835 JLINK_HasError()
TE1F4 000:747.494 JLINK_IsHalted()
TE1F4 000:750.066   CPU_ReadMem(2 bytes @ 0x20000000)
TE1F4 000:750.380 - 2.889ms returns TRUE
TE1F4 000:750.389 JLINK_ReadReg(R15 (PC))
TE1F4 000:750.397 - 0.010ms returns 0x20000000
TE1F4 000:750.404 JLINK_ClrBPEx(BPHandle = 0x00000009)
TE1F4 000:750.410 - 0.009ms returns 0x00
TE1F4 000:750.417 JLINK_ReadReg(R0)
TE1F4 000:750.422 - 0.008ms returns 0x00000000
TE1F4 000:750.996 JLINK_HasError()
TE1F4 000:751.008 JLINK_WriteReg(R0, 0x08002000)
TE1F4 000:751.017 - 0.011ms returns 0
TE1F4 000:751.024 JLINK_WriteReg(R1, 0x00000800)
TE1F4 000:751.032 - 0.010ms returns 0
TE1F4 000:751.038 JLINK_WriteReg(R2, 0x000000FF)
TE1F4 000:751.043 - 0.007ms returns 0
TE1F4 000:751.049 JLINK_WriteReg(R3, 0x00000000)
TE1F4 000:751.054 - 0.007ms returns 0
TE1F4 000:751.060 JLINK_WriteReg(R4, 0x00000000)
TE1F4 000:751.065 - 0.007ms returns 0
TE1F4 000:751.071 JLINK_WriteReg(R5, 0x00000000)
TE1F4 000:751.076 - 0.007ms returns 0
TE1F4 000:751.082 JLINK_WriteReg(R6, 0x00000000)
TE1F4 000:751.087 - 0.007ms returns 0
TE1F4 000:751.093 JLINK_WriteReg(R7, 0x00000000)
TE1F4 000:751.098 - 0.007ms returns 0
TE1F4 000:751.104 JLINK_WriteReg(R8, 0x00000000)
TE1F4 000:751.109 - 0.007ms returns 0
TE1F4 000:751.115 JLINK_WriteReg(R9, 0x20000160)
TE1F4 000:751.120 - 0.007ms returns 0
TE1F4 000:751.126 JLINK_WriteReg(R10, 0x00000000)
TE1F4 000:751.131 - 0.007ms returns 0
TE1F4 000:751.137 JLINK_WriteReg(R11, 0x00000000)
TE1F4 000:751.142 - 0.007ms returns 0
TE1F4 000:751.148 JLINK_WriteReg(R12, 0x00000000)
TE1F4 000:751.153 - 0.007ms returns 0
TE1F4 000:751.159 JLINK_WriteReg(R13 (SP), 0x20000800)
TE1F4 000:751.164 - 0.008ms returns 0
TE1F4 000:751.170 JLINK_WriteReg(R14, 0x20000001)
TE1F4 000:751.175 - 0.007ms returns 0
TE1F4 000:751.181 JLINK_WriteReg(R15 (PC), 0x20000020)
TE1F4 000:751.187 - 0.007ms returns 0
TE1F4 000:751.192 JLINK_WriteReg(XPSR, 0x01000000)
TE1F4 000:751.198 - 0.007ms returns 0
TE1F4 000:751.204 JLINK_WriteReg(MSP, 0x20000800)
TE1F4 000:751.209 - 0.007ms returns 0
TE1F4 000:751.215 JLINK_WriteReg(PSP, 0x20000800)
TE1F4 000:751.220 - 0.007ms returns 0
TE1F4 000:751.226 JLINK_WriteReg(CFBP, 0x00000000)
TE1F4 000:751.231 - 0.007ms returns 0
TE1F4 000:751.237 JLINK_SetBPEx(Addr = 0x20000000, Type = 0xFFFFFFF2)
TE1F4 000:751.243 - 0.008ms returns 0x0000000A
TE1F4 000:751.249 JLINK_Go()
TE1F4 000:751.261   CPU_ReadMem(4 bytes @ 0xE0001000)
TE1F4 000:754.275 - 3.030ms
TE1F4 000:754.284 JLINK_IsHalted()
TE1F4 000:756.860   CPU_ReadMem(2 bytes @ 0x20000000)
TE1F4 000:757.177 - 2.896ms returns TRUE
TE1F4 000:757.186 JLINK_ReadReg(R15 (PC))
TE1F4 000:757.194 - 0.010ms returns 0x20000000
TE1F4 000:757.201 JLINK_ClrBPEx(BPHandle = 0x0000000A)
TE1F4 000:757.208 - 0.009ms returns 0x00
TE1F4 000:757.215 JLINK_ReadReg(R0)
TE1F4 000:757.221 - 0.008ms returns 0x00000001
TE1F4 000:757.228 JLINK_HasError()
TE1F4 000:757.235 JLINK_WriteReg(R0, 0x08002000)
TE1F4 000:757.242 - 0.009ms returns 0
TE1F4 000:757.248 JLINK_WriteReg(R1, 0x00000800)
TE1F4 000:757.254 - 0.008ms returns 0
TE1F4 000:757.261 JLINK_WriteReg(R2, 0x000000FF)
TE1F4 000:757.267 - 0.009ms returns 0
TE1F4 000:757.274 JLINK_WriteReg(R3, 0x00000000)
TE1F4 000:757.280 - 0.008ms returns 0
TE1F4 000:757.287 JLINK_WriteReg(R4, 0x00000000)
TE1F4 000:757.293 - 0.008ms returns 0
TE1F4 000:757.300 JLINK_WriteReg(R5, 0x00000000)
TE1F4 000:757.305 - 0.008ms returns 0
TE1F4 000:757.312 JLINK_WriteReg(R6, 0x00000000)
TE1F4 000:757.318 - 0.008ms returns 0
TE1F4 000:757.325 JLINK_WriteReg(R7, 0x00000000)
TE1F4 000:757.333 - 0.013ms returns 0
TE1F4 000:757.342 JLINK_WriteReg(R8, 0x00000000)
TE1F4 000:757.348 - 0.008ms returns 0
TE1F4 000:757.354 JLINK_WriteReg(R9, 0x20000160)
TE1F4 000:757.360 - 0.009ms returns 0
TE1F4 000:757.367 JLINK_WriteReg(R10, 0x00000000)
TE1F4 000:757.373 - 0.009ms returns 0
TE1F4 000:757.380 JLINK_WriteReg(R11, 0x00000000)
TE1F4 000:757.386 - 0.008ms returns 0
TE1F4 000:757.393 JLINK_WriteReg(R12, 0x00000000)
TE1F4 000:757.398 - 0.008ms returns 0
TE1F4 000:757.405 JLINK_WriteReg(R13 (SP), 0x20000800)
TE1F4 000:757.411 - 0.009ms returns 0
TE1F4 000:757.418 JLINK_WriteReg(R14, 0x20000001)
TE1F4 000:757.424 - 0.008ms returns 0
TE1F4 000:757.431 JLINK_WriteReg(R15 (PC), 0x200000B6)
TE1F4 000:757.437 - 0.008ms returns 0
TE1F4 000:757.443 JLINK_WriteReg(XPSR, 0x01000000)
TE1F4 000:757.449 - 0.009ms returns 0
TE1F4 000:757.456 JLINK_WriteReg(MSP, 0x20000800)
TE1F4 000:757.462 - 0.008ms returns 0
TE1F4 000:757.469 JLINK_WriteReg(PSP, 0x20000800)
TE1F4 000:757.475 - 0.008ms returns 0
TE1F4 000:757.482 JLINK_WriteReg(CFBP, 0x00000000)
TE1F4 000:757.488 - 0.008ms returns 0
TE1F4 000:757.494 JLINK_SetBPEx(Addr = 0x20000000, Type = 0xFFFFFFF2)
TE1F4 000:757.501 - 0.009ms returns 0x0000000B
TE1F4 000:757.508 JLINK_Go()
TE1F4 000:757.519   CPU_ReadMem(4 bytes @ 0xE0001000)
TE1F4 000:760.544 - 3.041ms
TE1F4 000:760.554 JLINK_IsHalted()
TE1F4 000:760.882 - 0.331ms returns FALSE
TE1F4 000:760.892 JLINK_HasError()
TE1F4 000:762.741 JLINK_IsHalted()
TE1F4 000:763.079 - 0.342ms returns FALSE
TE1F4 000:763.090 JLINK_HasError()
TE1F4 000:764.918 JLINK_IsHalted()
TE1F4 000:765.338 - 0.424ms returns FALSE
TE1F4 000:765.349 JLINK_HasError()
TE1F4 000:767.392 JLINK_IsHalted()
TE1F4 000:767.782 - 0.395ms returns FALSE
TE1F4 000:767.796 JLINK_HasError()
TE1F4 000:769.544 JLINK_IsHalted()
